(1567709372.324832) can0 077#0000000000000000
(1567709372.604073) can0 077#0000000000000000
(1567709372.883357) can0 077#0000000000000000
(1567709373.162643) can0 077#0000000000000000
(1567709373.441914) can0 077#0000000000000000
(1567709373.721217) can0 077#0000000000000000
(1567709374.000487) can0 077#0000000000000000
(1567709374.279779) can0 077#0000000000000000
(1567709374.559064) can0 077#0000000000000000
(1567709374.838364) can0 077#0000000000000000
(1567709375.117627) can0 077#0000000000000000
(1567709375.396910) can0 077#0000000000000000
(1567709375.676213) can0 077#0000000000000000
(1567709375.955494) can0 077#0000000000000000
(1567709376.234755) can0 077#0000000000000000
(1567709376.514046) can0 077#0000000000000000
(1567709376.793364) can0 077#0000000000000000
(1567709377.072620) can0 077#0000000000000000
(1567709377.351907) can0 077#0000000000000000
(1567709377.631230) can0 077#0000000000000000
(1567709377.910509) can0 077#0000000000000000
(1567709378.189781) can0 077#0000000000000000
(1567709378.469066) can0 077#0000000000000000
(1567709378.748349) can0 077#0000000000000000
(1567709379.027621) can0 077#0000000000000000
(1567709379.306913) can0 077#0000000000000000
(1567709379.586193) can0 077#0000000000000000
(1567709379.865494) can0 077#0000000000000000
(1567709380.144778) can0 077#0000000000000000
(1567709380.424050) can0 077#0000000000000000
(1567709380.703354) can0 077#0000000000000000
(1567709380.982641) can0 077#0000000000000000
(1567709381.261913) can0 077#0000000000000000
(1567709381.541197) can0 077#0000000000000000
(1567709381.820505) can0 077#0000000000000000
(1567709382.099768) can0 077#0000000000000000
(1567709382.379065) can0 077#0000000000000000
(1567709382.658343) can0 077#0000000000000000
(1567709382.937632) can0 077#0000000000000000
(1567709383.216929) can0 077#0000000000000000
(1567709383.496223) can0 077#0000000000000000
(1567709383.775513) can0 077#0000000000000000
(1567709384.054766) can0 077#0000000000000000
(1567709384.334065) can0 077#0000000000000000
(1567709384.613345) can0 077#0000000000000000
(1567709384.892625) can0 077#0000000000000000
(1567709385.171899) can0 077#0000000000000000
(1567709385.451181) can0 077#0000000000000000
(1567709385.730496) can0 077#0000000000000000
(1567709386.009758) can0 077#0000000000000000
(1567709386.289064) can0 077#0000000000000000
(1567709386.568344) can0 077#0000000000000000
(1567709386.847640) can0 077#0000000000000000
(1567709387.126901) can0 077#0000000000000000
(1567709387.406180) can0 077#0000000000000000
(1567709387.685489) can0 077#0000000000000000
(1567709387.964763) can0 077#0000000000000000
(1567709388.244035) can0 077#0000000000000000
(1567709388.523307) can0 077#0000000000000000
(1567709388.802633) can0 077#0000000000000000
(1567709389.081907) can0 077#0000000000000000
(1567709389.361181) can0 077#0000000000000000
(1567709389.640475) can0 077#0000000000000000
(1567709389.919754) can0 077#0000000000000000
(1567709390.199040) can0 077#0000000000000000
(1567709390.478315) can0 077#0000000000000000
(1567709390.757623) can0 077#0000000000000000
(1567709391.036904) can0 077#0000000000000000
(1567709391.316161) can0 077#0000000000000000
(1567709391.595480) can0 077#0000000000000000
(1567709391.874758) can0 077#0000000000000000
(1567709392.154043) can0 077#0000000000000000
(1567709392.433319) can0 077#0000000000000000
(1567709392.712608) can0 077#0000000000000000
(1567709392.991902) can0 077#0000000000000000
(1567709393.271165) can0 077#0000000000000000
(1567709393.550467) can0 077#0000000000000000
(1567709393.829758) can0 077#0000000000000000
(1567709394.109042) can0 077#0000000000000000
(1567709394.388308) can0 077#0000000000000000
(1567709394.667611) can0 077#0000000000000000
(1567709394.946882) can0 077#0000000000000000
(1567709395.226169) can0 077#0000000000000000
(1567709395.505489) can0 077#0000000000000000
(1567709395.784775) can0 077#0000000000000000
(1567709396.064039) can0 077#0000000000000000
(1567709396.343306) can0 077#0000000000000000
(1567709396.622612) can0 077#0000000000000000
(1567709396.901898) can0 077#0000000000000000
(1567709397.181184) can0 077#0000000000000000
(1567709397.460524) can0 077#0000000000000000
(1567709397.739784) can0 077#0000000000000000
(1567709398.019030) can0 077#0000000000000000
(1567709398.298328) can0 077#0000000000000000
(1567709398.577600) can0 077#0000000000000000
(1567709398.856912) can0 077#0000000000000000
(1567709399.136174) can0 077#0000000000000000
(1567709399.415459) can0 077#0000000000000000
(1567709399.694759) can0 077#0000000000000000
(1567709399.974041) can0 077#0000000000000000
(1567709400.253364) can0 077#0000000000000000
(1567709400.532617) can0 077#0000000000000000
(1567709400.811908) can0 077#0000000000000000
(1567709401.091183) can0 077#0000000000000000
(1567709401.370465) can0 077#0000000000000000
(1567709401.649776) can0 077#0000000000000000
(1567709401.929052) can0 077#0000000000000000
(1567709402.208317) can0 077#0000011000000000
(1567709402.487591) can0 077#0000033100000000
(1567709402.766898) can0 077#0000055200000000
(1567709403.046157) can0 077#0000066200000000
(1567709403.325436) can0 077#0000088700000000
(1567709403.604755) can0 077#00000AA900000000
(1567709403.884007) can0 077#00000BB900000000
(1567709404.163302) can0 077#00000DDA00000000
(1567709404.442582) can0 077#00000FFE00000000
(1567709404.721875) can0 077#0001122200000000
(1567709405.001170) can0 077#0001144700000000
(1567709405.280439) can0 077#0001177900000000
(1567709405.559741) can0 077#0001199B00000000
(1567709405.839030) can0 077#00011BBF00000000
(1567709406.118318) can0 077#00011EE100000000
(1567709406.397593) can0 077#0002200400000000
(1567709406.676880) can0 077#0002222800000000
(1567709406.956168) can0 077#0002255F00000000
(1567709407.235432) can0 077#0002288300000000
(1567709407.514723) can0 077#00022AA400000000
(1567709407.794045) can0 077#00022CC800000000
(1567709408.073310) can0 077#00022EEA00000000
(1567709408.352577) can0 077#0003311E00000000
(1567709408.631881) can0 077#0003344000000000
(1567709408.911174) can0 077#0003366500000000
(1567709409.190430) can0 077#0003388900000000
(1567709409.469712) can0 077#00033AAA00000000
(1567709409.749029) can0 077#00033CCB00000000
(1567709410.028301) can0 077#00033EEB00000000
(1567709410.307666) can0 077#0004411B00000000
(1567709410.586869) can0 077#0004433D00000000
(1567709410.866166) can0 077#0004455F00000000
(1567709411.145450) can0 077#0004488600000000
(1567709411.424714) can0 077#00044AA900000000
(1567709411.704026) can0 077#00044CCB00000000
(1567709411.983303) can0 077#00044FF000000000
(1567709412.262572) can0 077#0005500E00000000
(1567709412.541851) can0 077#0005522F00000000
(1567709412.821200) can0 077#0005555300000000
(1567709413.100454) can0 077#0005577500000000
(1567709413.379708) can0 077#0005599700000000
(1567709413.659035) can0 077#00055BB800000000
(1567709413.938296) can0 077#00055EE900000000
(1567709414.217582) can0 077#0006600B00000000
(1567709414.496853) can0 077#0006622B00000000
(1567709414.776158) can0 077#0006644E00000000
(1567709415.055425) can0 077#0006677100000000
(1567709415.334700) can0 077#0006699300000000
(1567709415.613997) can0 077#00066BB300000000
(1567709415.893295) can0 077#00066DD600000000
(1567709416.172574) can0 077#00066FF700000000
(1567709416.451861) can0 077#0007711A00000000
(1567709416.731155) can0 077#0007733E00000000
(1567709417.010440) can0 077#0007766100000000
(1567709417.289703) can0 077#0007788400000000
(1567709417.569007) can0 077#00077BB500000000
(1567709417.848305) can0 077#00077DD400000000
(1567709418.127594) can0 077#00077FF800000000
(1567709418.406850) can0 077#0008811B00000000
(1567709418.686140) can0 077#0008833A00000000
(1567709418.965438) can0 077#0008855D00000000
(1567709419.244714) can0 077#0008888200000000
(1567709419.523991) can0 077#00088BB800000000
(1567709419.803303) can0 077#00088DDC00000000
(1567709420.082562) can0 077#00088FFF00000000
(1567709420.361879) can0 077#0009922400000000
(1567709420.641145) can0 077#0009944700000000
(1567709420.920435) can0 077#0009966B00000000
(1567709421.199698) can0 077#0009988D00000000
(1567709421.478977) can0 077#00099BB300000000
(1567709421.758297) can0 077#00099EE400000000
(1567709422.037579) can0 077#000AA00800000000
(1567709422.316879) can0 077#000AA22B00000000
(1567709422.596148) can0 077#000AA44C00000000
(1567709422.875508) can0 077#000AA66C00000000
(1567709423.154699) can0 077#000AA88E00000000
(1567709423.433986) can0 077#000AABB000000000
(1567709423.713295) can0 077#000AAEE300000000
(1567709423.992573) can0 077#000BB00300000000
(1567709424.271855) can0 077#000BB22700000000
(1567709424.551143) can0 077#000BB44700000000
(1567709424.830429) can0 077#000BB66D00000000
(1567709425.109705) can0 077#000BBAA000000000
(1567709425.388968) can0 077#000BBCC100000000
(1567709425.668290) can0 077#000BBEE200000000
(1567709425.947646) can0 077#000CC00900000000
(1567709426.226850) can0 077#000CC22B00000000
(1567709426.506126) can0 077#000CC55B00000000
(1567709426.785433) can0 077#000CC77E00000000
(1567709427.064716) can0 077#000CCAA300000000
(1567709427.343979) can0 077#000CCCC600000000
(1567709427.623283) can0 077#000CCEEA00000000
(1567709427.902569) can0 077#000DD11C00000000
(1567709428.181838) can0 077#000DD44100000000
(1567709428.461112) can0 077#000DD66400000000
(1567709428.740423) can0 077#000DD88700000000
(1567709429.019709) can0 077#000DDBBD00000000
(1567709429.298984) can0 077#000DDEE400000000
(1567709429.578289) can0 077#000EE00600000000
(1567709429.857566) can0 077#000EE22A00000000
(1567709430.136842) can0 077#000EE55E00000000
(1567709430.416114) can0 077#000EE88000000000
(1567709430.695420) can0 077#000EEAA300000000
(1567709430.974693) can0 077#000EECC500000000
(1567709431.253975) can0 077#000EEEE800000000
(1567709431.533259) can0 077#000FF11B00000000
(1567709431.812571) can0 077#000FF33B00000000
(1567709432.091845) can0 077#000FF55E00000000
(1567709432.371129) can0 077#000FF77F00000000
(1567709432.650407) can0 077#000FFBB500000000
(1567709432.929708) can0 077#000FFDD600000000
(1567709433.208985) can0 077#000FFFF900000000
(1567709433.488248) can0 077#0110011B00000000
(1567709433.767598) can0 077#0110055100000000
(1567709434.046837) can0 077#0110077200000000
(1567709434.326130) can0 077#0110099200000000
(1567709434.605418) can0 077#01100BB400000000
(1567709434.884681) can0 077#01100EE800000000
(1567709435.163965) can0 077#0111100C00000000
(1567709435.443245) can0 077#0111122C00000000
(1567709435.722557) can0 077#0111155E00000000
(1567709436.001839) can0 077#0111188300000000
(1567709436.281114) can0 077#01111AA900000000
(1567709436.560417) can0 077#01111CCF00000000
(1567709436.839712) can0 077#0112200300000000
(1567709437.118969) can0 077#0112222600000000
(1567709437.398259) can0 077#0112244A00000000
(1567709437.677546) can0 077#0112288100000000
(1567709437.956838) can0 077#01122AA400000000
(1567709438.236105) can0 077#01122CC500000000
(1567709438.515491) can0 077#01122EEB00000000
(1567709438.794690) can0 077#0113322000000000
(1567709439.073982) can0 077#0113344100000000
(1567709439.353270) can0 077#0113366200000000
(1567709439.632550) can0 077#0113388400000000
(1567709439.911840) can0 077#01133BBA00000000
(1567709440.191118) can0 077#01133DDD00000000
(1567709440.470399) can0 077#01133FFE00000000
(1567709440.749696) can0 077#0114422200000000
(1567709441.028972) can0 077#0114455800000000
(1567709441.308264) can0 077#0114477C00000000
(1567709441.587869) can0 077#0114499C00000000
(1567709441.866833) can0 077#01144BBE00000000
(1567709442.146106) can0 077#01144EEE00000000
(1567709442.425387) can0 077#0115500F00000000
(1567709442.704686) can0 077#0115522F00000000
(1567709442.983972) can0 077#0115566300000000
(1567709443.263232) can0 077#0115588900000000
(1567709443.542542) can0 077#01155AAB00000000
(1567709443.821845) can0 077#01155CCC00000000
(1567709444.101122) can0 077#01155EED00000000
(1567709444.380393) can0 077#0116622000000000
(1567709444.659782) can0 077#0116644300000000
(1567709444.938967) can0 077#0116666400000000
(1567709445.218240) can0 077#0116688800000000
(1567709445.497540) can0 077#01166BBA00000000
(1567709445.776831) can0 077#01166DDD00000000
(1567709446.056099) can0 077#0117700100000000
(1567709446.335446) can0 077#0117722400000000
(1567709446.614688) can0 077#0117744600000000
(1567709446.893961) can0 077#0117777800000000
(1567709447.173245) can0 077#0117799C00000000
(1567709447.452523) can0 077#01177BBC00000000
(1567709447.731842) can0 077#01177DDF00000000
(1567709448.011131) can0 077#0118800400000000
(1567709448.290374) can0 077#0118833A00000000
(1567709448.569675) can0 077#0118855F00000000
(1567709448.848973) can0 077#0118888000000000
(1567709449.128245) can0 077#01188AA300000000
(1567709449.407578) can0 077#01188DD600000000
(1567709449.686822) can0 077#01188FFC00000000
(1567709449.966120) can0 077#0119911E00000000
(1567709450.245381) can0 077#0119933F00000000
(1567709450.524668) can0 077#0119977000000000
(1567709450.804020) can0 077#0119999000000000
(1567709451.083262) can0 077#01199BB300000000
(1567709451.362534) can0 077#01199DD800000000
(1567709451.641821) can0 077#011AA00700000000
(1567709451.921105) can0 077#011AA22700000000
(1567709452.200374) can0 077#011AA44700000000
(1567709452.479715) can0 077#011AA66B00000000
(1567709452.758966) can0 077#011AA99D00000000
(1567709453.038241) can0 077#011AACC000000000
(1567709453.317502) can0 077#011AAEE100000000
(1567709453.596836) can0 077#011BB00100000000
(1567709453.876097) can0 077#011BB33200000000
(1567709454.155368) can0 077#011BB55500000000
(1567709454.434683) can0 077#011BB77800000000
(1567709454.713959) can0 077#011BB99E00000000
(1567709454.993241) can0 077#011BBDD400000000
(1567709455.272508) can0 077#011BBFF800000000
(1567709455.551812) can0 077#011CC11900000000
(1567709455.831106) can0 077#011CC33C00000000
(1567709456.110371) can0 077#011CC77300000000
(1567709456.389661) can0 077#011CC99800000000
(1567709456.668949) can0 077#011CCBBC00000000
(1567709456.948242) can0 077#011CCDDF00000000
(1567709457.227511) can0 077#011DD11000000000
(1567709457.506802) can0 077#011DD33400000000
(1567709457.786101) can0 077#011DD55600000000
(1567709458.065403) can0 077#011DD77800000000
(1567709458.344669) can0 077#011DDAAB00000000
(1567709458.623951) can0 077#011DDCCF00000000
(1567709458.903226) can0 077#011DDFF400000000
(1567709459.182523) can0 077#011EE22800000000
(1567709459.461794) can0 077#011EE44B00000000
(1567709459.741094) can0 077#011EE66C00000000
(1567709460.020394) can0 077#011EE99000000000
(1567709460.299743) can0 077#011EEBB800000000
(1567709460.578962) can0 077#011EEEED00000000
(1567709460.858237) can0 077#011FF11100000000
(1567709461.137527) can0 077#011FF33200000000
(1567709461.416794) can0 077#011FF55700000000
(1567709461.696098) can0 077#011FF88B00000000
(1567709461.975381) can0 077#011FFAAB00000000
(1567709462.254663) can0 077#011FFCCF00000000
(1567709462.533933) can0 077#011FFFF300000000
(1567709462.813237) can0 077#0220011600000000
(1567709463.092517) can0 077#0220044B00000000
(1567709463.371850) can0 077#0220066C00000000
(1567709463.651080) can0 077#0220099000000000
(1567709463.930374) can0 077#02200BB300000000
(1567709464.209654) can0 077#02200EE800000000
(1567709464.488932) can0 077#0221100A00000000
(1567709464.768228) can0 077#0221122E00000000
(1567709465.047575) can0 077#0221155100000000
(1567709465.326780) can0 077#0221177100000000
(1567709465.606084) can0 077#02211AA400000000
(1567709465.885350) can0 077#02211CC700000000
(1567709466.164635) can0 077#02211EEB00000000
(1567709466.443932) can0 077#0222200C00000000
(1567709466.723221) can0 077#0222233000000000
(1567709467.002508) can0 077#0222266600000000
(1567709467.281785) can0 077#0222288800000000
(1567709467.561074) can0 077#02222AAD00000000
(1567709467.840392) can0 077#02222CCF00000000
(1567709468.119653) can0 077#0223300400000000
(1567709468.398935) can0 077#0223322800000000
(1567709468.678212) can0 077#0223344D00000000
(1567709468.957526) can0 077#0223377200000000
(1567709469.236782) can0 077#0223399700000000
(1567709469.516066) can0 077#02233CC900000000
(1567709469.795366) can0 077#02233EEE00000000
(1567709470.074647) can0 077#0224400F00000000
(1567709470.353923) can0 077#0224433500000000
(1567709470.633222) can0 077#0224466D00000000
(1567709470.912510) can0 077#0224499100000000
(1567709471.191765) can0 077#02244BB700000000
(1567709471.471076) can0 077#02244DDA00000000
(1567709471.750365) can0 077#0225500E00000000
(1567709472.029650) can0 077#0225533200000000
(1567709472.308932) can0 077#0225555200000000
(1567709472.588200) can0 077#0225577200000000
(1567709472.867508) can0 077#02255AA400000000
(1567709473.146788) can0 077#02255CC700000000
(1567709473.426066) can0 077#02255EE900000000
(1567709473.705362) can0 077#0226600B00000000
(1567709473.984650) can0 077#0226622F00000000
(1567709474.263916) can0 077#0226655F00000000
(1567709474.543202) can0 077#0226688200000000
(1567709474.822496) can0 077#02266AA200000000
(1567709475.101786) can0 077#02266CC300000000
(1567709475.381036) can0 077#02266EE500000000
(1567709475.660347) can0 077#0227700800000000
(1567709475.939646) can0 077#0227722C00000000
(1567709476.218918) can0 077#0227744E00000000
(1567709476.498194) can0 077#0227777100000000
(1567709476.777506) can0 077#0227799500000000
(1567709477.056781) can0 077#02277AA600000000
(1567709477.336051) can0 077#02277CC600000000
(1567709477.615350) can0 077#02277CC600000000
(1567709477.894636) can0 077#02277CC600000000
(1567709478.173908) can0 077#02277CC600000000
(1567709478.453206) can0 077#02277CC600000000
(1567709478.732494) can0 077#02277CC600000000
(1567709479.011780) can0 077#02277CC600000000
(1567709479.291049) can0 077#02277CC600000000
(1567709479.570344) can0 077#02277CC600000000
(1567709479.849640) can0 077#02277CC600000000
(1567709480.128912) can0 077#02277CC600000000
(1567709480.408194) can0 077#02277CC600000000
(1567709480.687492) can0 077#02277CC600000000
(1567709480.966781) can0 077#02277CC600000000
(1567709481.246060) can0 077#02277CC600000000
(1567709481.525341) can0 077#02277CC600000000
(1567709481.804635) can0 077#02277CC600000000
(1567709482.083932) can0 077#02277CC600000000
(1567709482.363200) can0 077#02277CC600000000
(1567709482.642489) can0 077#02277CC600000000
(1567709482.921756) can0 077#02277CC600000000
(1567709483.201054) can0 077#02277CC600000000
(1567709483.480314) can0 077#02277CC600000000
(1567709483.759646) can0 077#02277CC600000000
(1567709484.038908) can0 077#02277CC600000000
(1567709484.318189) can0 077#02277CC600000000
(1567709484.597480) can0 077#02277CC600000000
(1567709484.876766) can0 077#02277CC600000000
(1567709485.156052) can0 077#02277CC600000000
(1567709485.435332) can0 077#02277CC600000000
(1567709485.714626) can0 077#02277CC600000000
(1567709485.993915) can0 077#02277CC600000000
(1567709486.273197) can0 077#02277CC600000000
(1567709486.552481) can0 077#02277CC600000000
(1567709486.831766) can0 077#02277CC600000000
(1567709487.111052) can0 077#02277CC600000000
(1567709487.390303) can0 077#02277CC600000000
(1567709487.669628) can0 077#02277CC600000000
(1567709487.948915) can0 077#02277CC600000000
(1567709488.228176) can0 077#02277CC600000000
(1567709488.507465) can0 077#02277CC600000000
(1567709488.786763) can0 077#02277CC600000000
(1567709489.066048) can0 077#02277CC600000000
(1567709489.345327) can0 077#02277CC600000000
(1567709489.624622) can0 077#02277CC600000000
(1567709489.903935) can0 077#02277CC600000000
(1567709490.183184) can0 077#02277CC600000000
(1567709490.462486) can0 077#02277CC600000000
(1567709490.741763) can0 077#02277CC600000000
(1567709491.021035) can0 077#02277CC600000000
(1567709491.300330) can0 077#02277CC600000000
(1567709491.579665) can0 077#02277CC600000000
(1567709491.858915) can0 077#02277CC600000000
(1567709492.138185) can0 077#02277CC600000000
(1567709492.417464) can0 077#02277CC600000000
(1567709492.696762) can0 077#02277CC600000000
(1567709492.976038) can0 077#02277CC600000000
(1567709493.255317) can0 077#02277CC600000000
(1567709493.534596) can0 077#02277CC600000000
(1567709493.813898) can0 077#02277CC600000000
(1567709494.093179) can0 077#02277CC600000000
(1567709494.372462) can0 077#02277CC600000000
(1567709494.651759) can0 077#02277CC600000000
(1567709494.931043) can0 077#02277CC600000000
(1567709495.210321) can0 077#02277CC600000000
(1567709495.489600) can0 077#02277CC600000000
(1567709495.768906) can0 077#02277CC600000000
(1567709496.048186) can0 077#02277CC600000000
(1567709496.327469) can0 077#02277CC600000000
(1567709496.606760) can0 077#02277CC600000000
